T3D1C 1611:907 SEGGER J-Link V6.40 Log File (0000ms, 5019ms total)
T3D1C 1611:907 DLL Compiled: Oct 26 2018 15:06:02 (0000ms, 5019ms total)
T3D1C 1611:907 Logging started @ 2019-06-13 16:23 (0000ms, 5019ms total)
T3D1C 1611:907 JLINK_SetWarnOutHandler(...) (0000ms, 5019ms total)
T3D1C 1611:907 JLINK_OpenEx(...)
Firmware: J-Link OB-STM32F072-CortexM compiled Sep 27 2018 09:38:41
Hardware: V1.00
Feature(s): GDB, RDI, FlashBP, FlashDL, JFlash, RDDI
TELNET listener socket opened on port 19021WEBSRV 
Starting webserver (0025ms, 5044ms total)
T3D1C 1611:907 WEBSRV Webserver running on local port 19080 (0025ms, 5044ms total)
T3D1C 1611:907   returns O.K. (0025ms, 5044ms total)
T3D1C 1611:932 JLINK_GetEmuCaps()  returns 0xB8EA5A33 (0000ms, 5044ms total)
T3D1C 1611:933 JLINK_TIF_GetAvailable(...) (0001ms, 5045ms total)
T3D1C 1611:934 JLINK_SetErrorOutHandler(...) (0000ms, 5045ms total)
T3D1C 1611:934 JLINK_ExecCommand("ProjectFile = "D:\EE\µ¥Æ¬»úworks\TIVA·É¿Ø\TIVA_FC-20190603\Project\JLinkSettings.ini"", ...).   returns 0x00 (0001ms, 5046ms total)
T3D1C 1611:948 JLINK_ExecCommand("Device = TM4C123GH6PM", ...). Device "TM4C123GH6PM" selected.  returns 0x00 (0014ms, 5060ms total)
T3D1C 1611:962 JLINK_ExecCommand("DisableConnectionTimeout", ...).   returns 0x01 (0000ms, 5060ms total)
T3D1C 1611:962 JLINK_GetHardwareVersion()  returns 0x2710 (0000ms, 5060ms total)
T3D1C 1611:962 JLINK_GetDLLVersion()  returns 64000 (0000ms, 5060ms total)
T3D1C 1611:962 JLINK_GetFirmwareString(...) (0000ms, 5060ms total)
T3D1C 1611:980 JLINK_GetDLLVersion()  returns 64000 (0000ms, 5060ms total)
T3D1C 1611:980 JLINK_GetCompileDateTime() (0000ms, 5060ms total)
T3D1C 1611:987 JLINK_GetFirmwareString(...) (0000ms, 5060ms total)
T3D1C 1611:993 JLINK_GetHardwareVersion()  returns 0x2710 (0000ms, 5060ms total)
T3D1C 1612:009 JLINK_TIF_Select(JLINKARM_TIF_SWD)  returns 0x00 (0002ms, 5062ms total)
T3D1C 1612:011 JLINK_SetSpeed(50000) (0001ms, 5063ms total)
T3D1C 1612:012 JLINK_GetId() >0x10B TIF>Found SW-DP with ID 0x2BA01477 >0x0D TIF> >0x28 TIF> >0x0D TIF> >0x28 TIF> >0x0D TIF> >0x28 TIF> >0x0D TIF> >0x28 TIF> >0x0D TIF> >0x21 TIF> >0x0D TIF> >0x28 TIF>Scanning AP map to find all available APs >0x0D TIF> >0x28 TIF> >0x0D TIF> >0x21 TIF> >0x0D TIF> >0x21 TIF> >0x0D TIF> >0x28 TIF> >0x0D TIF> >0x21 TIF> >0x0D TIF> >0x21 TIF>AP[1]: Stopped AP scan as end of AP map has been reachedAP[0]: AHB-AP (IDR: 0x24770011)Iterating through AP map to find AHB-AP to use
 >0x42 TIF> >0x28 TIF> >0x0D TIF> >0x28 TIF> >0x0D TIF> >0x21 TIF> >0x0D TIF> >0x21 TIF> >0x42 TIF> >0x28 TIF> >0x0D TIF> >0x28 TIF> >0x0D TIF> >0x28 TIF> >0x0D TIF> >0x21 TIF> >0x0D TIF> >0x0D TIF> >0x0D TIF> >0x0D TIF> >0x0D TIF> >0x0D TIF> >0x0D TIF> >0x0D TIF> >0x0D TIF> >0x21 TIF>AP[0]: Core foundAP[0]: AHB-AP ROM base: 0xE00FF000 >0x0D TIF> >0x28 TIF> >0x0D TIF> >0x28 TIF> >0x0D TIF> >0x28 TIF> >0x0D TIF> >0x21 TIF> >0x0D TIF> >0x21 TIF>CPUID register: 0x410FC241. Implementer code: 0x41 (ARM)
Found Cortex-M4 r0p1, Little endian. -- Max. mem block: 0x00002458 -- CPU_ReadMem(4 bytes @ 0xE000EDF0) -- CPU_WriteMem(4 bytes @ 0xE000EDF0) -- CPU_ReadMem(4 bytes @ 0xE0002000)FPUnit: 6 code (BP) slots and 2 literal slots -- CPU_ReadMem(4 bytes @ 0xE000EDFC) -- CPU_WriteMem(4 bytes @ 0xE000EDFC) -- CPU_ReadMem(4 bytes @ 0xE0001000) -- CPU_WriteMem(4 bytes @ 0xE0001000) -- CPU_ReadMem(4 bytes @ 0xE000ED88) -- CPU_WriteMem(4 bytes @ 0xE000ED88) -- CPU_ReadMem(4 bytes @ 0xE000ED88)
 -- CPU_WriteMem(4 bytes @ 0xE000ED88)CoreSight components:ROMTbl[0] @ E00FF000 -- CPU_ReadMem(16 bytes @ 0xE00FF000) -- CPU_ReadMem(16 bytes @ 0xE000EFF0) -- CPU_ReadMem(16 bytes @ 0xE000EFE0)ROMTbl[0][0]: E000E000, CID: B105E00D, PID: 000BB00C SCS-M7 -- CPU_ReadMem(16 bytes @ 0xE0001FF0) -- CPU_ReadMem(16 bytes @ 0xE0001FE0)ROMTbl[0][1]: E0001000, CID: B105E00D, PID: 003BB002 DWT -- CPU_ReadMem(16 bytes @ 0xE0002FF0) -- CPU_ReadMem(16 bytes @ 0xE0002FE0)
ROMTbl[0][2]: E0002000, CID: B105E00D, PID: 002BB003 FPB -- CPU_ReadMem(16 bytes @ 0xE0000FF0) -- CPU_ReadMem(16 bytes @ 0xE0000FE0)ROMTbl[0][3]: E0000000, CID: B105E00D, PID: 003BB001 ITM -- CPU_ReadMem(16 bytes @ 0xE00FF010) -- CPU_ReadMem(16 bytes @ 0xE0040FF0) -- CPU_ReadMem(16 bytes @ 0xE0040FE0)ROMTbl[0][4]: E0040000, CID: B105900D, PID: 000BB9A1 TPIU -- CPU_ReadMem(16 bytes @ 0xE0041FF0) -- CPU_ReadMem(16 bytes @ 0xE0041FE0)ROMTbl[0][5]: E0041000, CID: B105900D, PID: 000BB925 ETM
 -- CPU_ReadMem(4 bytes @ 0x400FE0F0) >0x0D TIF> >0x21 TIF>  returns 0x2BA01477 (0264ms, 5327ms total)
T3D1C 1612:276 JLINK_GetDLLVersion()  returns 64000 (0000ms, 5327ms total)
T3D1C 1612:276 JLINK_CORE_GetFound()  returns 0xE0000FF (0000ms, 5327ms total)
T3D1C 1612:276 JLINK_GetDebugInfo(0x100 = JLINKARM_ROM_TABLE_ADDR_INDEX) -- Value=0xE00FF000  returns 0x00 (0000ms, 5327ms total)
T3D1C 1612:279 JLINK_GetDebugInfo(0x100 = JLINKARM_ROM_TABLE_ADDR_INDEX) -- Value=0xE00FF000  returns 0x00 (0000ms, 5327ms total)
T3D1C 1612:279 JLINK_GetDebugInfo(0x101 = JLINKARM_DEBUG_INFO_ETM_ADDR_INDEX) -- Value=0xE0041000  returns 0x00 (0000ms, 5327ms total)
T3D1C 1612:279 JLINK_ReadMemEx(0xE0041FD0, 0x0020 Bytes, ..., Flags = 0x02000004) -- CPU_ReadMem(32 bytes @ 0xE0041FD0) - Data: 04 00 00 00 00 00 00 00 00 00 00 00 00 00 00 00 ...  returns 0x20 (0001ms, 5328ms total)
T3D1C 1612:280 JLINK_GetDebugInfo(0x102 = JLINKARM_DEBUG_INFO_MTB_ADDR_INDEX) -- Value=0x00000000  returns 0x00 (0001ms, 5329ms total)
T3D1C 1612:281 JLINK_GetDebugInfo(0x103 = JLINKARM_DEBUG_INFO_TPIU_ADDR_INDEX) -- Value=0xE0040000  returns 0x00 (0000ms, 5329ms total)
T3D1C 1612:281 JLINK_GetDebugInfo(0x104 = JLINKARM_DEBUG_INFO_ITM_ADDR_INDEX) -- Value=0xE0000000  returns 0x00 (0000ms, 5329ms total)
T3D1C 1612:281 JLINK_GetDebugInfo(0x105 = JLINKARM_DEBUG_INFO_DWT_ADDR_INDEX) -- Value=0xE0001000  returns 0x00 (0000ms, 5329ms total)
T3D1C 1612:281 JLINK_GetDebugInfo(0x106 = JLINKARM_DEBUG_INFO_FPB_ADDR_INDEX) -- Value=0xE0002000  returns 0x00 (0000ms, 5329ms total)
T3D1C 1612:281 JLINK_GetDebugInfo(0x107 = JLINKARM_DEBUG_INFO_NVIC_ADDR_INDEX) -- Value=0xE000E000  returns 0x00 (0000ms, 5329ms total)
T3D1C 1612:281 JLINK_GetDebugInfo(0x10C = JLINKARM_DEBUG_INFO_DBG_ADDR_INDEX) -- Value=0xE000EDF0  returns 0x00 (0000ms, 5329ms total)
T3D1C 1612:281 JLINK_GetDebugInfo(0x01 = Unknown) -- Value=0x00000001  returns 0x00 (0000ms, 5329ms total)
T3D1C 1612:281 JLINK_ReadMemU32(0xE000ED00, 0x0001 Items, ...) -- CPU_ReadMem(4 bytes @ 0xE000ED00) - Data: 41 C2 0F 41  returns 1 (0000ms, 5329ms total)
T3D1C 1612:281 JLINK_GetDebugInfo(0x10F = JLINKARM_DEBUG_INFO_HAS_CORTEX_M_SECURITY_EXT_INDEX) -- Value=0x00000000  returns 0x00 (0000ms, 5329ms total)
T3D1C 1612:281 JLINK_SetResetType(JLINKARM_CM3_RESET_TYPE_NORMAL)  returns JLINKARM_CM3_RESET_TYPE_NORMAL (0001ms, 5330ms total)
T3D1C 1612:282 JLINK_Reset() -- CPU is running -- CPU_WriteMem(4 bytes @ 0xE000EDF0) -- CPU is running -- CPU_WriteMem(4 bytes @ 0xE000EDFC)Reset: Halt core after reset via DEMCR.VC_CORERESET. >0x35 TIF>Reset: Reset device via AIRCR.SYSRESETREQ. -- CPU is running -- CPU_WriteMem(4 bytes @ 0xE000ED0C) >0x0D TIF> >0x28 TIF> -- CPU_ReadMem(4 bytes @ 0xE000EDF0) -- CPU_ReadMem(4 bytes @ 0xE000EDF0) -- CPU is running -- CPU_WriteMem(4 bytes @ 0xE000EDF0) -- CPU is running -- CPU_WriteMem(4 bytes @ 0xE000EDFC)
 -- CPU_ReadMem(4 bytes @ 0xE000EDF0) -- CPU_ReadMem(4 bytes @ 0x400FE0F0) -- CPU_WriteMem(4 bytes @ 0xE0002000) -- CPU_ReadMem(4 bytes @ 0xE000EDFC) -- CPU_ReadMem(4 bytes @ 0xE0001000) (0088ms, 5418ms total)
T3D1C 1612:371 JLINK_Halt()  returns 0x00 (0000ms, 5418ms total)
T3D1C 1612:371 JLINK_ReadMemU32(0xE000EDF0, 0x0001 Items, ...) -- CPU_ReadMem(4 bytes @ 0xE000EDF0) - Data: 03 00 03 00  returns 1 (0001ms, 5419ms total)
T3D1C 1612:372 JLINK_WriteU32(0xE000EDF0, 0xA05F0003) -- CPU_WriteMem(4 bytes @ 0xE000EDF0)  returns 0 (0001ms, 5420ms total)
T3D1C 1612:373 JLINK_WriteU32(0xE000EDFC, 0x01000000) -- CPU_WriteMem(4 bytes @ 0xE000EDFC)  returns 0 (0001ms, 5421ms total)
T3D1C 1612:390 JLINK_GetHWStatus(...)  returns 0x00 (0001ms, 5422ms total)
T3D1C 1612:402 JLINK_GetNumBPUnits(Type = 0xFFFFFF00)  returns 0x06 (0000ms, 5422ms total)
T3D1C 1612:402 JLINK_GetNumBPUnits(Type = 0xF0)  returns 0x2000 (0000ms, 5422ms total)
T3D1C 1612:402 JLINK_GetNumWPUnits()  returns 0x04 (0000ms, 5422ms total)
T3D1C 1612:413 JLINK_GetSpeed()  returns 0x7D0 (0000ms, 5422ms total)
T3D1C 1612:419 JLINK_ReadMemU32(0xE000E004, 0x0001 Items, ...) -- CPU_ReadMem(4 bytes @ 0xE000E004) - Data: 04 00 00 00  returns 1 (0001ms, 5423ms total)
T3D1C 1612:420 JLINK_ReadMemU32(0xE000E004, 0x0001 Items, ...) -- CPU_ReadMem(4 bytes @ 0xE000E004) - Data: 04 00 00 00  returns 1 (0003ms, 5426ms total)
T3D1C 1612:423 JLINK_WriteMemEx(0xE0001000, 0x001C Bytes, ..., Flags = 0x02000004) - Data: 01 00 00 00 00 00 00 00 00 00 00 00 00 00 00 00 ... -- CPU_WriteMem(28 bytes @ 0xE0001000)  returns 0x1C (0002ms, 5428ms total)
T3D1C 1612:425 JLINK_Halt()  returns 0x00 (0000ms, 5428ms total)
T3D1C 1612:425 JLINK_IsHalted()  returns TRUE (0000ms, 5428ms total)
T3D1C 1612:428 JLINK_WriteMem(0x20000000, 0x0128 Bytes, ...) - Data: 00 BE 0A E0 0D 78 2D 06 68 40 08 24 40 00 00 D3 ... -- CPU_WriteMem(296 bytes @ 0x20000000)  returns 0x128 (0004ms, 5432ms total)
T3D1C 1612:432 JLINK_WriteReg(R0, 0x00000000)  returns 0x00 (0000ms, 5432ms total)
T3D1C 1612:432 JLINK_WriteReg(R1, 0x00F42400)  returns 0x00 (0000ms, 5432ms total)
T3D1C 1612:432 JLINK_WriteReg(R2, 0x00000001)  returns 0x00 (0000ms, 5432ms total)
T3D1C 1612:432 JLINK_WriteReg(R3, 0x00000000)  returns 0x00 (0000ms, 5432ms total)
T3D1C 1612:432 JLINK_WriteReg(R4, 0x00000000)  returns 0x00 (0000ms, 5432ms total)
T3D1C 1612:432 JLINK_WriteReg(R5, 0x00000000)  returns 0x00 (0000ms, 5432ms total)
T3D1C 1612:432 JLINK_WriteReg(R6, 0x00000000)  returns 0x00 (0000ms, 5432ms total)
T3D1C 1612:432 JLINK_WriteReg(R7, 0x00000000)  returns 0x00 (0000ms, 5432ms total)
T3D1C 1612:432 JLINK_WriteReg(R8, 0x00000000)  returns 0x00 (0000ms, 5432ms total)
T3D1C 1612:432 JLINK_WriteReg(R9, 0x20000124)  returns 0x00 (0000ms, 5432ms total)
T3D1C 1612:432 JLINK_WriteReg(R10, 0x00000000)  returns 0x00 (0000ms, 5432ms total)
T3D1C 1612:432 JLINK_WriteReg(R11, 0x00000000)  returns 0x00 (0000ms, 5432ms total)
T3D1C 1612:432 JLINK_WriteReg(R12, 0x00000000)  returns 0x00 (0000ms, 5432ms total)
T3D1C 1612:432 JLINK_WriteReg(R13 (SP), 0x20001000)  returns 0x00 (0000ms, 5432ms total)
T3D1C 1612:432 JLINK_WriteReg(R14, 0x20000001)  returns 0x00 (0000ms, 5432ms total)
T3D1C 1612:432 JLINK_WriteReg(R15 (PC), 0x20000038)  returns 0x00 (0000ms, 5432ms total)
T3D1C 1612:432 JLINK_WriteReg(XPSR, 0x01000000)  returns 0x00 (0000ms, 5432ms total)
T3D1C 1612:432 JLINK_WriteReg(MSP, 0x20001000)  returns 0x00 (0000ms, 5432ms total)
T3D1C 1612:432 JLINK_WriteReg(PSP, 0x20001000)  returns 0x00 (0000ms, 5432ms total)
T3D1C 1612:433 JLINK_WriteReg(CFBP, 0x00000000)  returns 0x00 (0000ms, 5432ms total)
T3D1C 1612:433 JLINK_SetBPEx(Addr = 0x20000000, Type = 0xFFFFFFF2) -- CPU_ReadMem(2 bytes @ 0x20000000)  returns 0x00000001 (0002ms, 5434ms total)
T3D1C 1612:435 JLINK_Go() -- CPU_WriteMem(2 bytes @ 0x20000000) -- CPU_ReadMem(4 bytes @ 0xE0001000) -- CPU_WriteMem(4 bytes @ 0xE0002008) -- CPU_WriteMem(4 bytes @ 0xE000200C) -- CPU_WriteMem(4 bytes @ 0xE0002010) -- CPU_WriteMem(4 bytes @ 0xE0002014) -- CPU_WriteMem(4 bytes @ 0xE0002018) -- CPU_WriteMem(4 bytes @ 0xE000201C) -- CPU_WriteMem(4 bytes @ 0xE0001004) (0009ms, 5443ms total)
T3D1C 1612:444 JLINK_IsHalted() -- CPU_ReadMem(2 bytes @ 0x20000000)  returns TRUE (0007ms, 5450ms total)
T3D1C 1612:451 JLINK_ReadReg(R15 (PC))  returns 0x20000000 (0000ms, 5443ms total)
T3D1C 1612:451 JLINK_ClrBPEx(BPHandle = 0x00000001)  returns 0x00 (0000ms, 5443ms total)
T3D1C 1612:451 JLINK_ReadReg(R0)  returns 0x00000000 (0000ms, 5443ms total)
T3D1C 1612:452 JLINK_WriteReg(R0, 0x00000000)  returns 0x00 (0000ms, 5443ms total)
T3D1C 1612:452 JLINK_WriteReg(R1, 0x00F42400)  returns 0x00 (0000ms, 5443ms total)
T3D1C 1612:452 JLINK_WriteReg(R2, 0x00000001)  returns 0x00 (0000ms, 5443ms total)
T3D1C 1612:452 JLINK_WriteReg(R3, 0x00000000)  returns 0x00 (0000ms, 5443ms total)
T3D1C 1612:452 JLINK_WriteReg(R4, 0x00000000)  returns 0x00 (0000ms, 5443ms total)
T3D1C 1612:452 JLINK_WriteReg(R5, 0x00000000)  returns 0x00 (0000ms, 5443ms total)
T3D1C 1612:452 JLINK_WriteReg(R6, 0x00000000)  returns 0x00 (0000ms, 5443ms total)
T3D1C 1612:452 JLINK_WriteReg(R7, 0x00000000)  returns 0x00 (0000ms, 5443ms total)
T3D1C 1612:452 JLINK_WriteReg(R8, 0x00000000)  returns 0x00 (0000ms, 5443ms total)
T3D1C 1612:452 JLINK_WriteReg(R9, 0x20000124)  returns 0x00 (0000ms, 5443ms total)
T3D1C 1612:452 JLINK_WriteReg(R10, 0x00000000)  returns 0x00 (0000ms, 5443ms total)
T3D1C 1612:452 JLINK_WriteReg(R11, 0x00000000)  returns 0x00 (0000ms, 5443ms total)
T3D1C 1612:452 JLINK_WriteReg(R12, 0x00000000)  returns 0x00 (0000ms, 5443ms total)
T3D1C 1612:452 JLINK_WriteReg(R13 (SP), 0x20001000)  returns 0x00 (0000ms, 5443ms total)
T3D1C 1612:452 JLINK_WriteReg(R14, 0x20000001)  returns 0x00 (0000ms, 5443ms total)
T3D1C 1612:452 JLINK_WriteReg(R15 (PC), 0x20000056)  returns 0x00 (0000ms, 5443ms total)
T3D1C 1612:452 JLINK_WriteReg(XPSR, 0x01000000)  returns 0x00 (0000ms, 5443ms total)
T3D1C 1612:452 JLINK_WriteReg(MSP, 0x20001000)  returns 0x00 (0000ms, 5443ms total)
T3D1C 1612:452 JLINK_WriteReg(PSP, 0x20001000)  returns 0x00 (0000ms, 5443ms total)
T3D1C 1612:452 JLINK_WriteReg(CFBP, 0x00000000)  returns 0x00 (0000ms, 5443ms total)
T3D1C 1612:452 JLINK_SetBPEx(Addr = 0x20000000, Type = 0xFFFFFFF2)  returns 0x00000002 (0000ms, 5443ms total)
T3D1C 1612:452 JLINK_Go() -- CPU_ReadMem(4 bytes @ 0xE0001000) (0004ms, 5447ms total)
T3D1C 1612:456 JLINK_IsHalted()  returns FALSE (0001ms, 5448ms total)
T3D1C 1612:511 JLINK_IsHalted() -- CPU_ReadMem(2 bytes @ 0x20000000)  returns TRUE (0007ms, 5454ms total)
T3D1C 1612:518 JLINK_ReadReg(R15 (PC))  returns 0x20000000 (0000ms, 5447ms total)
T3D1C 1612:518 JLINK_ClrBPEx(BPHandle = 0x00000002)  returns 0x00 (0000ms, 5447ms total)
T3D1C 1612:518 JLINK_ReadReg(R0)  returns 0x00000000 (0000ms, 5447ms total)
T3D1C 1612:570 JLINK_WriteReg(R0, 0x00000001)  returns 0x00 (0000ms, 5447ms total)
T3D1C 1612:570 JLINK_WriteReg(R1, 0x00F42400)  returns 0x00 (0000ms, 5447ms total)
T3D1C 1612:570 JLINK_WriteReg(R2, 0x00000001)  returns 0x00 (0000ms, 5447ms total)
T3D1C 1612:570 JLINK_WriteReg(R3, 0x00000000)  returns 0x00 (0000ms, 5447ms total)
T3D1C 1612:570 JLINK_WriteReg(R4, 0x00000000)  returns 0x00 (0000ms, 5447ms total)
T3D1C 1612:570 JLINK_WriteReg(R5, 0x00000000)  returns 0x00 (0000ms, 5447ms total)
T3D1C 1612:570 JLINK_WriteReg(R6, 0x00000000)  returns 0x00 (0000ms, 5447ms total)
T3D1C 1612:570 JLINK_WriteReg(R7, 0x00000000)  returns 0x00 (0000ms, 5447ms total)
T3D1C 1612:570 JLINK_WriteReg(R8, 0x00000000)  returns 0x00 (0000ms, 5447ms total)
T3D1C 1612:570 JLINK_WriteReg(R9, 0x20000124)  returns 0x00 (0000ms, 5447ms total)
T3D1C 1612:570 JLINK_WriteReg(R10, 0x00000000)  returns 0x00 (0000ms, 5447ms total)
T3D1C 1612:570 JLINK_WriteReg(R11, 0x00000000)  returns 0x00 (0000ms, 5447ms total)
T3D1C 1612:570 JLINK_WriteReg(R12, 0x00000000)  returns 0x00 (0000ms, 5447ms total)
T3D1C 1612:570 JLINK_WriteReg(R13 (SP), 0x20001000)  returns 0x00 (0000ms, 5447ms total)
T3D1C 1612:570 JLINK_WriteReg(R14, 0x20000001)  returns 0x00 (0001ms, 5448ms total)
T3D1C 1612:571 JLINK_WriteReg(R15 (PC), 0x20000052)  returns 0x00 (0000ms, 5448ms total)
T3D1C 1612:571 JLINK_WriteReg(XPSR, 0x01000000)  returns 0x00 (0000ms, 5448ms total)
T3D1C 1612:571 JLINK_WriteReg(MSP, 0x20001000)  returns 0x00 (0000ms, 5448ms total)
T3D1C 1612:571 JLINK_WriteReg(PSP, 0x20001000)  returns 0x00 (0000ms, 5448ms total)
T3D1C 1612:571 JLINK_WriteReg(CFBP, 0x00000000)  returns 0x00 (0000ms, 5448ms total)
T3D1C 1612:571 JLINK_SetBPEx(Addr = 0x20000000, Type = 0xFFFFFFF2)  returns 0x00000003 (0000ms, 5448ms total)
T3D1C 1612:571 JLINK_Go() -- CPU_ReadMem(4 bytes @ 0xE0001000) (0004ms, 5452ms total)
T3D1C 1612:575 JLINK_IsHalted() -- CPU_ReadMem(2 bytes @ 0x20000000)  returns TRUE (0007ms, 5459ms total)
T3D1C 1612:582 JLINK_ReadReg(R15 (PC))  returns 0x20000000 (0000ms, 5452ms total)
T3D1C 1612:582 JLINK_ClrBPEx(BPHandle = 0x00000003)  returns 0x00 (0000ms, 5452ms total)
T3D1C 1612:582 JLINK_ReadReg(R0)  returns 0x00000000 (0000ms, 5452ms total)
T3D1C 1612:590 JLINK_WriteMem(0x20000000, 0x0128 Bytes, ...) - Data: 00 BE 0A E0 0D 78 2D 06 68 40 08 24 40 00 00 D3 ... -- CPU_WriteMem(296 bytes @ 0x20000000)  returns 0x128 (0004ms, 5456ms total)
T3D1C 1612:594 JLINK_WriteReg(R0, 0x00000000)  returns 0x00 (0000ms, 5456ms total)
T3D1C 1612:594 JLINK_WriteReg(R1, 0x00F42400)  returns 0x00 (0000ms, 5456ms total)
T3D1C 1612:594 JLINK_WriteReg(R2, 0x00000002)  returns 0x00 (0000ms, 5456ms total)
T3D1C 1612:594 JLINK_WriteReg(R3, 0x00000000)  returns 0x00 (0000ms, 5456ms total)
T3D1C 1612:594 JLINK_WriteReg(R4, 0x00000000)  returns 0x00 (0000ms, 5456ms total)
T3D1C 1612:594 JLINK_WriteReg(R5, 0x00000000)  returns 0x00 (0000ms, 5456ms total)
T3D1C 1612:594 JLINK_WriteReg(R6, 0x00000000)  returns 0x00 (0000ms, 5456ms total)
T3D1C 1612:594 JLINK_WriteReg(R7, 0x00000000)  returns 0x00 (0000ms, 5456ms total)
T3D1C 1612:594 JLINK_WriteReg(R8, 0x00000000)  returns 0x00 (0000ms, 5456ms total)
T3D1C 1612:594 JLINK_WriteReg(R9, 0x20000124)  returns 0x00 (0000ms, 5456ms total)
T3D1C 1612:594 JLINK_WriteReg(R10, 0x00000000)  returns 0x00 (0000ms, 5456ms total)
T3D1C 1612:594 JLINK_WriteReg(R11, 0x00000000)  returns 0x00 (0000ms, 5456ms total)
T3D1C 1612:594 JLINK_WriteReg(R12, 0x00000000)  returns 0x00 (0000ms, 5456ms total)
T3D1C 1612:594 JLINK_WriteReg(R13 (SP), 0x20001000)  returns 0x00 (0000ms, 5456ms total)
T3D1C 1612:594 JLINK_WriteReg(R14, 0x20000001)  returns 0x00 (0000ms, 5456ms total)
T3D1C 1612:594 JLINK_WriteReg(R15 (PC), 0x20000038)  returns 0x00 (0000ms, 5456ms total)
T3D1C 1612:594 JLINK_WriteReg(XPSR, 0x01000000)  returns 0x00 (0000ms, 5456ms total)
T3D1C 1612:594 JLINK_WriteReg(MSP, 0x20001000)  returns 0x00 (0000ms, 5456ms total)
T3D1C 1612:594 JLINK_WriteReg(PSP, 0x20001000)  returns 0x00 (0000ms, 5456ms total)
T3D1C 1612:594 JLINK_WriteReg(CFBP, 0x00000000)  returns 0x00 (0000ms, 5456ms total)
T3D1C 1612:594 JLINK_SetBPEx(Addr = 0x20000000, Type = 0xFFFFFFF2) -- CPU_ReadMem(2 bytes @ 0x20000000)  returns 0x00000004 (0001ms, 5457ms total)
T3D1C 1612:595 JLINK_Go() -- CPU_WriteMem(2 bytes @ 0x20000000) -- CPU_ReadMem(4 bytes @ 0xE0001000) (0006ms, 5463ms total)
T3D1C 1612:601 JLINK_IsHalted() -- CPU_ReadMem(2 bytes @ 0x20000000)  returns TRUE (0007ms, 5470ms total)
T3D1C 1612:608 JLINK_ReadReg(R15 (PC))  returns 0x20000000 (0000ms, 5463ms total)
T3D1C 1612:608 JLINK_ClrBPEx(BPHandle = 0x00000004)  returns 0x00 (0000ms, 5463ms total)
T3D1C 1612:608 JLINK_ReadReg(R0)  returns 0x00000000 (0000ms, 5463ms total)
T3D1C 1612:608 JLINK_WriteMem(0x20000128, 0x02D8 Bytes, ...) - Data: 98 15 00 20 B1 02 00 00 B9 02 00 00 BB 02 00 00 ... -- CPU_WriteMem(728 bytes @ 0x20000128)  returns 0x2D8 (0009ms, 5472ms total)
T3D1C 1612:617 JLINK_WriteMem(0x20000400, 0x0128 Bytes, ...) - Data: FE E7 FE E7 FE E7 FE E7 FE E7 FE E7 FE E7 FE E7 ... -- CPU_WriteMem(296 bytes @ 0x20000400)  returns 0x128 (0004ms, 5476ms total)
T3D1C 1612:621 JLINK_WriteReg(R0, 0x00000000)  returns 0x00 (0000ms, 5476ms total)
T3D1C 1612:621 JLINK_WriteReg(R1, 0x00000400)  returns 0x00 (0000ms, 5476ms total)
T3D1C 1612:621 JLINK_WriteReg(R2, 0x20000128)  returns 0x00 (0000ms, 5476ms total)
T3D1C 1612:621 JLINK_WriteReg(R3, 0x00000000)  returns 0x00 (0000ms, 5476ms total)
T3D1C 1612:621 JLINK_WriteReg(R4, 0x00000000)  returns 0x00 (0000ms, 5476ms total)
T3D1C 1612:621 JLINK_WriteReg(R5, 0x00000000)  returns 0x00 (0000ms, 5476ms total)
T3D1C 1612:621 JLINK_WriteReg(R6, 0x00000000)  returns 0x00 (0000ms, 5476ms total)
T3D1C 1612:621 JLINK_WriteReg(R7, 0x00000000)  returns 0x00 (0000ms, 5476ms total)
T3D1C 1612:621 JLINK_WriteReg(R8, 0x00000000)  returns 0x00 (0000ms, 5476ms total)
T3D1C 1612:621 JLINK_WriteReg(R9, 0x20000124)  returns 0x00 (0000ms, 5476ms total)
T3D1C 1612:621 JLINK_WriteReg(R10, 0x00000000)  returns 0x00 (0000ms, 5476ms total)
T3D1C 1612:621 JLINK_WriteReg(R11, 0x00000000)  returns 0x00 (0000ms, 5476ms total)
T3D1C 1612:621 JLINK_WriteReg(R12, 0x00000000)  returns 0x00 (0000ms, 5476ms total)
T3D1C 1612:621 JLINK_WriteReg(R13 (SP), 0x20001000)  returns 0x00 (0000ms, 5476ms total)
T3D1C 1612:621 JLINK_WriteReg(R14, 0x20000001)  returns 0x00 (0000ms, 5476ms total)
T3D1C 1612:621 JLINK_WriteReg(R15 (PC), 0x20000092)  returns 0x00 (0000ms, 5476ms total)
T3D1C 1612:621 JLINK_WriteReg(XPSR, 0x01000000)  returns 0x00 (0000ms, 5476ms total)
T3D1C 1612:621 JLINK_WriteReg(MSP, 0x20001000)  returns 0x00 (0000ms, 5476ms total)
T3D1C 1612:621 JLINK_WriteReg(PSP, 0x20001000)  returns 0x00 (0000ms, 5476ms total)
T3D1C 1612:621 JLINK_WriteReg(CFBP, 0x00000000)  returns 0x00 (0000ms, 5476ms total)
T3D1C 1612:621 JLINK_SetBPEx(Addr = 0x20000000, Type = 0xFFFFFFF2)  returns 0x00000005 (0000ms, 5476ms total)
T3D1C 1612:621 JLINK_Go() -- CPU_ReadMem(4 bytes @ 0xE0001000) (0005ms, 5481ms total)
T3D1C 1612:626 JLINK_IsHalted()  returns FALSE (0001ms, 5482ms total)
T3D1C 1612:633 JLINK_IsHalted()  returns FALSE (0001ms, 5482ms total)
T3D1C 1612:636 JLINK_IsHalted() -- CPU_ReadMem(2 bytes @ 0x20000000)  returns TRUE (0007ms, 5488ms total)
T3D1C 1612:643 JLINK_ReadReg(R15 (PC))  returns 0x20000000 (0000ms, 5481ms total)
T3D1C 1612:643 JLINK_ClrBPEx(BPHandle = 0x00000005)  returns 0x00 (0000ms, 5481ms total)
T3D1C 1612:643 JLINK_ReadReg(R0)  returns 0x00000000 (0000ms, 5481ms total)
T3D1C 1612:643 JLINK_WriteMem(0x20000128, 0x02D8 Bytes, ...) - Data: 10 43 47 D0 27 0D C7 F3 0A 00 C3 F3 0A 51 02 90 ... -- CPU_WriteMem(728 bytes @ 0x20000128)  returns 0x2D8 (0009ms, 5490ms total)
T3D1C 1612:652 JLINK_WriteMem(0x20000400, 0x0128 Bytes, ...) - Data: BD E8 F0 4D 00 F0 C9 B8 0E B5 C1 0F 80 EA E0 70 ... -- CPU_WriteMem(296 bytes @ 0x20000400)  returns 0x128 (0004ms, 5494ms total)
T3D1C 1612:656 JLINK_WriteReg(R0, 0x00000400)  returns 0x00 (0000ms, 5494ms total)
T3D1C 1612:656 JLINK_WriteReg(R1, 0x00000400)  returns 0x00 (0000ms, 5494ms total)
T3D1C 1612:656 JLINK_WriteReg(R2, 0x20000128)  returns 0x00 (0000ms, 5494ms total)
T3D1C 1612:656 JLINK_WriteReg(R3, 0x00000000)  returns 0x00 (0000ms, 5494ms total)
T3D1C 1612:656 JLINK_WriteReg(R4, 0x00000000)  returns 0x00 (0000ms, 5494ms total)
T3D1C 1612:656 JLINK_WriteReg(R5, 0x00000000)  returns 0x00 (0000ms, 5494ms total)
T3D1C 1612:656 JLINK_WriteReg(R6, 0x00000000)  returns 0x00 (0000ms, 5494ms total)
T3D1C 1612:656 JLINK_WriteReg(R7, 0x00000000)  returns 0x00 (0000ms, 5494ms total)
T3D1C 1612:656 JLINK_WriteReg(R8, 0x00000000)  returns 0x00 (0000ms, 5494ms total)
T3D1C 1612:656 JLINK_WriteReg(R9, 0x20000124)  returns 0x00 (0000ms, 5494ms total)
T3D1C 1612:656 JLINK_WriteReg(R10, 0x00000000)  returns 0x00 (0000ms, 5494ms total)
T3D1C 1612:656 JLINK_WriteReg(R11, 0x00000000)  returns 0x00 (0000ms, 5494ms total)
T3D1C 1612:656 JLINK_WriteReg(R12, 0x00000000)  returns 0x00 (0000ms, 5494ms total)
T3D1C 1612:656 JLINK_WriteReg(R13 (SP), 0x20001000)  returns 0x00 (0000ms, 5494ms total)
T3D1C 1612:656 JLINK_WriteReg(R14, 0x20000001)  returns 0x00 (0000ms, 5494ms total)
T3D1C 1612:656 JLINK_WriteReg(R15 (PC), 0x20000092)  returns 0x00 (0000ms, 5494ms total)
T3D1C 1612:656 JLINK_WriteReg(XPSR, 0x01000000)  returns 0x00 (0000ms, 5494ms total)
T3D1C 1612:656 JLINK_WriteReg(MSP, 0x20001000)  returns 0x00 (0000ms, 5494ms total)
T3D1C 1612:656 JLINK_WriteReg(PSP, 0x20001000)  returns 0x00 (0000ms, 5494ms total)
T3D1C 1612:656 JLINK_WriteReg(CFBP, 0x00000000)  returns 0x00 (0000ms, 5494ms total)
T3D1C 1612:656 JLINK_SetBPEx(Addr = 0x20000000, Type = 0xFFFFFFF2)  returns 0x00000006 (0000ms, 5494ms total)
T3D1C 1612:656 JLINK_Go() -- CPU_ReadMem(4 bytes @ 0xE0001000) (0005ms, 5499ms total)
T3D1C 1612:661 JLINK_IsHalted()  returns FALSE (0002ms, 5501ms total)
T3D1C 1612:665 JLINK_IsHalted()  returns FALSE (0001ms, 5500ms total)
T3D1C 1612:673 JLINK_IsHalted() -- CPU_ReadMem(2 bytes @ 0x20000000)  returns TRUE (0007ms, 5506ms total)
T3D1C 1612:680 JLINK_ReadReg(R15 (PC))  returns 0x20000000 (0000ms, 5499ms total)
T3D1C 1612:680 JLINK_ClrBPEx(BPHandle = 0x00000006)  returns 0x00 (0000ms, 5499ms total)
T3D1C 1612:680 JLINK_ReadReg(R0)  returns 0x00000000 (0000ms, 5499ms total)
T3D1C 1612:681 JLINK_WriteMem(0x20000128, 0x02D8 Bytes, ...) - Data: 19 46 70 47 00 29 A8 BF 70 47 40 1C 49 00 08 BF ... -- CPU_WriteMem(728 bytes @ 0x20000128)  returns 0x2D8 (0008ms, 5507ms total)
T3D1C 1612:690 JLINK_WriteMem(0x20000400, 0x0128 Bytes, ...) - Data: 2E D0 D0 ED 00 0A 8D EE A0 0A EF 48 D0 ED 00 0A ... -- CPU_WriteMem(296 bytes @ 0x20000400)  returns 0x128 (0004ms, 5511ms total)
T3D1C 1612:694 JLINK_WriteReg(R0, 0x00000800)  returns 0x00 (0000ms, 5511ms total)
T3D1C 1612:694 JLINK_WriteReg(R1, 0x00000400)  returns 0x00 (0000ms, 5511ms total)
T3D1C 1612:694 JLINK_WriteReg(R2, 0x20000128)  returns 0x00 (0000ms, 5511ms total)
T3D1C 1612:694 JLINK_WriteReg(R3, 0x00000000)  returns 0x00 (0000ms, 5511ms total)
T3D1C 1612:694 JLINK_WriteReg(R4, 0x00000000)  returns 0x00 (0000ms, 5511ms total)
T3D1C 1612:694 JLINK_WriteReg(R5, 0x00000000)  returns 0x00 (0000ms, 5511ms total)
T3D1C 1612:694 JLINK_WriteReg(R6, 0x00000000)  returns 0x00 (0000ms, 5511ms total)
T3D1C 1612:694 JLINK_WriteReg(R7, 0x00000000)  returns 0x00 (0000ms, 5511ms total)
T3D1C 1612:694 JLINK_WriteReg(R8, 0x00000000)  returns 0x00 (0000ms, 5511ms total)
T3D1C 1612:694 JLINK_WriteReg(R9, 0x20000124)  returns 0x00 (0000ms, 5511ms total)
T3D1C 1612:694 JLINK_WriteReg(R10, 0x00000000)  returns 0x00 (0000ms, 5511ms total)
T3D1C 1612:694 JLINK_WriteReg(R11, 0x00000000)  returns 0x00 (0000ms, 5511ms total)
T3D1C 1612:694 JLINK_WriteReg(R12, 0x00000000)  returns 0x00 (0000ms, 5511ms total)
T3D1C 1612:694 JLINK_WriteReg(R13 (SP), 0x20001000)  returns 0x00 (0000ms, 5511ms total)
T3D1C 1612:694 JLINK_WriteReg(R14, 0x20000001)  returns 0x00 (0000ms, 5511ms total)
T3D1C 1612:694 JLINK_WriteReg(R15 (PC), 0x20000092)  returns 0x00 (0000ms, 5511ms total)
T3D1C 1612:694 JLINK_WriteReg(XPSR, 0x01000000)  returns 0x00 (0000ms, 5511ms total)
T3D1C 1612:694 JLINK_WriteReg(MSP, 0x20001000)  returns 0x00 (0000ms, 5511ms total)
T3D1C 1612:694 JLINK_WriteReg(PSP, 0x20001000)  returns 0x00 (0000ms, 5511ms total)
T3D1C 1612:694 JLINK_WriteReg(CFBP, 0x00000000)  returns 0x00 (0000ms, 5511ms total)
T3D1C 1612:694 JLINK_SetBPEx(Addr = 0x20000000, Type = 0xFFFFFFF2)  returns 0x00000007 (0000ms, 5511ms total)
T3D1C 1612:694 JLINK_Go() -- CPU_ReadMem(4 bytes @ 0xE0001000) (0005ms, 5516ms total)
T3D1C 1612:699 JLINK_IsHalted()  returns FALSE (0002ms, 5518ms total)
T3D1C 1612:704 JLINK_IsHalted()  returns FALSE (0001ms, 5517ms total)
T3D1C 1612:707 JLINK_IsHalted()  returns FALSE (0001ms, 5517ms total)
T3D1C 1612:710 JLINK_IsHalted() -- CPU_ReadMem(2 bytes @ 0x20000000)  returns TRUE (0007ms, 5523ms total)
T3D1C 1612:717 JLINK_ReadReg(R15 (PC))  returns 0x20000000 (0000ms, 5516ms total)
T3D1C 1612:717 JLINK_ClrBPEx(BPHandle = 0x00000007)  returns 0x00 (0000ms, 5516ms total)
T3D1C 1612:717 JLINK_ReadReg(R0)  returns 0x00000000 (0000ms, 5516ms total)
T3D1C 1612:717 JLINK_WriteMem(0x20000128, 0x02D8 Bytes, ...) - Data: 00 0A 20 EE 20 0A A8 48 80 ED 00 0A AA 48 90 ED ... -- CPU_WriteMem(728 bytes @ 0x20000128)  returns 0x2D8 (0008ms, 5524ms total)
T3D1C 1612:725 JLINK_WriteMem(0x20000400, 0x0128 Bytes, ...) - Data: 34 FA 0E BD F1 EE 10 FA 02 D2 1F ED 03 0A 0F E0 ... -- CPU_WriteMem(296 bytes @ 0x20000400)  returns 0x128 (0005ms, 5529ms total)
T3D1C 1612:730 JLINK_WriteReg(R0, 0x00000C00)  returns 0x00 (0000ms, 5529ms total)
T3D1C 1612:730 JLINK_WriteReg(R1, 0x00000400)  returns 0x00 (0000ms, 5529ms total)
T3D1C 1612:730 JLINK_WriteReg(R2, 0x20000128)  returns 0x00 (0000ms, 5529ms total)
T3D1C 1612:730 JLINK_WriteReg(R3, 0x00000000)  returns 0x00 (0000ms, 5529ms total)
T3D1C 1612:730 JLINK_WriteReg(R4, 0x00000000)  returns 0x00 (0000ms, 5529ms total)
T3D1C 1612:730 JLINK_WriteReg(R5, 0x00000000)  returns 0x00 (0000ms, 5529ms total)
T3D1C 1612:730 JLINK_WriteReg(R6, 0x00000000)  returns 0x00 (0000ms, 5529ms total)
T3D1C 1612:730 JLINK_WriteReg(R7, 0x00000000)  returns 0x00 (0000ms, 5529ms total)
T3D1C 1612:730 JLINK_WriteReg(R8, 0x00000000)  returns 0x00 (0000ms, 5529ms total)
T3D1C 1612:730 JLINK_WriteReg(R9, 0x20000124)  returns 0x00 (0000ms, 5529ms total)
T3D1C 1612:730 JLINK_WriteReg(R10, 0x00000000)  returns 0x00 (0000ms, 5529ms total)
T3D1C 1612:730 JLINK_WriteReg(R11, 0x00000000)  returns 0x00 (0000ms, 5529ms total)
T3D1C 1612:730 JLINK_WriteReg(R12, 0x00000000)  returns 0x00 (0000ms, 5529ms total)
T3D1C 1612:730 JLINK_WriteReg(R13 (SP), 0x20001000)  returns 0x00 (0000ms, 5529ms total)
T3D1C 1612:730 JLINK_WriteReg(R14, 0x20000001)  returns 0x00 (0000ms, 5529ms total)
T3D1C 1612:730 JLINK_WriteReg(R15 (PC), 0x20000092)  returns 0x00 (0000ms, 5529ms total)
T3D1C 1612:730 JLINK_WriteReg(XPSR, 0x01000000)  returns 0x00 (0000ms, 5529ms total)
T3D1C 1612:730 JLINK_WriteReg(MSP, 0x20001000)  returns 0x00 (0000ms, 5529ms total)
T3D1C 1612:730 JLINK_WriteReg(PSP, 0x20001000)  returns 0x00 (0000ms, 5529ms total)
T3D1C 1612:730 JLINK_WriteReg(CFBP, 0x00000000)  returns 0x00 (0000ms, 5529ms total)
T3D1C 1612:730 JLINK_SetBPEx(Addr = 0x20000000, Type = 0xFFFFFFF2)  returns 0x00000008 (0000ms, 5529ms total)
T3D1C 1612:730 JLINK_Go() -- CPU_ReadMem(4 bytes @ 0xE0001000) (0005ms, 5534ms total)
T3D1C 1612:735 JLINK_IsHalted()  returns FALSE (0001ms, 5535ms total)
T3D1C 1612:741 JLINK_IsHalted()  returns FALSE (0001ms, 5535ms total)
T3D1C 1612:746 JLINK_IsHalted() -- CPU_ReadMem(2 bytes @ 0x20000000)  returns TRUE (0007ms, 5541ms total)
T3D1C 1612:753 JLINK_ReadReg(R15 (PC))  returns 0x20000000 (0000ms, 5534ms total)
T3D1C 1612:753 JLINK_ClrBPEx(BPHandle = 0x00000008)  returns 0x00 (0000ms, 5534ms total)
T3D1C 1612:753 JLINK_ReadReg(R0)  returns 0x00000000 (0000ms, 5534ms total)
T3D1C 1612:753 JLINK_WriteMem(0x20000128, 0x02D8 Bytes, ...) - Data: 08 DC 90 ED 00 0A DF ED C0 0A B4 EE E0 0A F1 EE ... -- CPU_WriteMem(728 bytes @ 0x20000128)  returns 0x2D8 (0009ms, 5543ms total)
T3D1C 1612:762 JLINK_WriteMem(0x20000400, 0x0128 Bytes, ...) - Data: 1B 0B 81 F0 00 41 1D E0 34 0B 00 20 34 FA 0E 3D ... -- CPU_WriteMem(296 bytes @ 0x20000400)  returns 0x128 (0004ms, 5547ms total)
T3D1C 1612:766 JLINK_WriteReg(R0, 0x00001000)  returns 0x00 (0000ms, 5547ms total)
T3D1C 1612:766 JLINK_WriteReg(R1, 0x00000400)  returns 0x00 (0000ms, 5547ms total)
T3D1C 1612:766 JLINK_WriteReg(R2, 0x20000128)  returns 0x00 (0000ms, 5547ms total)
T3D1C 1612:766 JLINK_WriteReg(R3, 0x00000000)  returns 0x00 (0000ms, 5547ms total)
T3D1C 1612:766 JLINK_WriteReg(R4, 0x00000000)  returns 0x00 (0000ms, 5547ms total)
T3D1C 1612:766 JLINK_WriteReg(R5, 0x00000000)  returns 0x00 (0000ms, 5547ms total)
T3D1C 1612:766 JLINK_WriteReg(R6, 0x00000000)  returns 0x00 (0000ms, 5547ms total)
T3D1C 1612:766 JLINK_WriteReg(R7, 0x00000000)  returns 0x00 (0000ms, 5547ms total)
T3D1C 1612:766 JLINK_WriteReg(R8, 0x00000000)  returns 0x00 (0000ms, 5547ms total)
T3D1C 1612:766 JLINK_WriteReg(R9, 0x20000124)  returns 0x00 (0000ms, 5547ms total)
T3D1C 1612:766 JLINK_WriteReg(R10, 0x00000000)  returns 0x00 (0000ms, 5547ms total)
T3D1C 1612:766 JLINK_WriteReg(R11, 0x00000000)  returns 0x00 (0000ms, 5547ms total)
T3D1C 1612:766 JLINK_WriteReg(R12, 0x00000000)  returns 0x00 (0000ms, 5547ms total)
T3D1C 1612:766 JLINK_WriteReg(R13 (SP), 0x20001000)  returns 0x00 (0000ms, 5547ms total)
T3D1C 1612:766 JLINK_WriteReg(R14, 0x20000001)  returns 0x00 (0000ms, 5547ms total)
T3D1C 1612:766 JLINK_WriteReg(R15 (PC), 0x20000092)  returns 0x00 (0000ms, 5547ms total)
T3D1C 1612:766 JLINK_WriteReg(XPSR, 0x01000000)  returns 0x00 (0000ms, 5547ms total)
T3D1C 1612:766 JLINK_WriteReg(MSP, 0x20001000)  returns 0x00 (0000ms, 5547ms total)
T3D1C 1612:766 JLINK_WriteReg(PSP, 0x20001000)  returns 0x00 (0000ms, 5547ms total)
T3D1C 1612:766 JLINK_WriteReg(CFBP, 0x00000000)  returns 0x00 (0000ms, 5547ms total)
T3D1C 1612:766 JLINK_SetBPEx(Addr = 0x20000000, Type = 0xFFFFFFF2)  returns 0x00000009 (0000ms, 5547ms total)
T3D1C 1612:766 JLINK_Go() -- CPU_ReadMem(4 bytes @ 0xE0001000) (0005ms, 5552ms total)
T3D1C 1612:771 JLINK_IsHalted()  returns FALSE (0001ms, 5553ms total)
T3D1C 1612:778 JLINK_IsHalted()  returns FALSE (0001ms, 5553ms total)
T3D1C 1612:781 JLINK_IsHalted() -- CPU_ReadMem(2 bytes @ 0x20000000)  returns TRUE (0007ms, 5559ms total)
T3D1C 1612:788 JLINK_ReadReg(R15 (PC))  returns 0x20000000 (0000ms, 5552ms total)
T3D1C 1612:788 JLINK_ClrBPEx(BPHandle = 0x00000009)  returns 0x00 (0000ms, 5552ms total)
T3D1C 1612:788 JLINK_ReadReg(R0)  returns 0x00000000 (0000ms, 5552ms total)
T3D1C 1612:788 JLINK_WriteMem(0x20000128, 0x02D8 Bytes, ...) - Data: EE 48 00 78 F1 49 09 78 90 FB F1 F2 01 FB 12 01 ... -- CPU_WriteMem(728 bytes @ 0x20000128)  returns 0x2D8 (0008ms, 5560ms total)
T3D1C 1612:796 JLINK_WriteMem(0x20000400, 0x0128 Bytes, ...) - Data: E4 88 04 F2 DC 54 A1 B2 50 4C A4 88 04 F2 DC 54 ... -- CPU_WriteMem(296 bytes @ 0x20000400)  returns 0x128 (0006ms, 5566ms total)
T3D1C 1612:802 JLINK_WriteReg(R0, 0x00001400)  returns 0x00 (0000ms, 5566ms total)
T3D1C 1612:802 JLINK_WriteReg(R1, 0x00000400)  returns 0x00 (0000ms, 5566ms total)
T3D1C 1612:802 JLINK_WriteReg(R2, 0x20000128)  returns 0x00 (0000ms, 5566ms total)
T3D1C 1612:802 JLINK_WriteReg(R3, 0x00000000)  returns 0x00 (0000ms, 5566ms total)
T3D1C 1612:802 JLINK_WriteReg(R4, 0x00000000)  returns 0x00 (0000ms, 5566ms total)
T3D1C 1612:802 JLINK_WriteReg(R5, 0x00000000)  returns 0x00 (0000ms, 5566ms total)
T3D1C 1612:802 JLINK_WriteReg(R6, 0x00000000)  returns 0x00 (0000ms, 5566ms total)
T3D1C 1612:802 JLINK_WriteReg(R7, 0x00000000)  returns 0x00 (0000ms, 5566ms total)
T3D1C 1612:802 JLINK_WriteReg(R8, 0x00000000)  returns 0x00 (0000ms, 5566ms total)
T3D1C 1612:802 JLINK_WriteReg(R9, 0x20000124)  returns 0x00 (0000ms, 5566ms total)
T3D1C 1612:802 JLINK_WriteReg(R10, 0x00000000)  returns 0x00 (0000ms, 5566ms total)
T3D1C 1612:802 JLINK_WriteReg(R11, 0x00000000)  returns 0x00 (0000ms, 5566ms total)
T3D1C 1612:802 JLINK_WriteReg(R12, 0x00000000)  returns 0x00 (0000ms, 5566ms total)
T3D1C 1612:802 JLINK_WriteReg(R13 (SP), 0x20001000)  returns 0x00 (0000ms, 5566ms total)
T3D1C 1612:802 JLINK_WriteReg(R14, 0x20000001)  returns 0x00 (0000ms, 5566ms total)
T3D1C 1612:802 JLINK_WriteReg(R15 (PC), 0x20000092)  returns 0x00 (0000ms, 5566ms total)
T3D1C 1612:802 JLINK_WriteReg(XPSR, 0x01000000)  returns 0x00 (0000ms, 5566ms total)
T3D1C 1612:802 JLINK_WriteReg(MSP, 0x20001000)  returns 0x00 (0000ms, 5566ms total)
T3D1C 1612:802 JLINK_WriteReg(PSP, 0x20001000)  returns 0x00 (0000ms, 5566ms total)
T3D1C 1612:802 JLINK_WriteReg(CFBP, 0x00000000)  returns 0x00 (0000ms, 5566ms total)
T3D1C 1612:802 JLINK_SetBPEx(Addr = 0x20000000, Type = 0xFFFFFFF2)  returns 0x0000000A (0000ms, 5566ms total)
T3D1C 1612:802 JLINK_Go() -- CPU_ReadMem(4 bytes @ 0xE0001000) (0004ms, 5570ms total)
T3D1C 1612:806 JLINK_IsHalted()  returns FALSE (0002ms, 5572ms total)
T3D1C 1612:813 JLINK_IsHalted()  returns FALSE (0000ms, 5570ms total)
T3D1C 1612:816 JLINK_IsHalted() -- CPU_ReadMem(2 bytes @ 0x20000000)  returns TRUE (0007ms, 5577ms total)
T3D1C 1612:823 JLINK_ReadReg(R15 (PC))  returns 0x20000000 (0000ms, 5570ms total)
T3D1C 1612:823 JLINK_ClrBPEx(BPHandle = 0x0000000A)  returns 0x00 (0000ms, 5570ms total)
T3D1C 1612:823 JLINK_ReadReg(R0)  returns 0x00000000 (0000ms, 5570ms total)
T3D1C 1612:823 JLINK_WriteMem(0x20000128, 0x02D8 Bytes, ...) - Data: 44 00 00 20 40 00 00 20 14 05 00 20 00 00 00 00 ... -- CPU_WriteMem(728 bytes @ 0x20000128)  returns 0x2D8 (0008ms, 5578ms total)
T3D1C 1612:831 JLINK_WriteMem(0x20000400, 0x0128 Bytes, ...) - Data: FE F7 26 FE BB 49 C8 65 21 7A 09 02 09 B2 62 7A ... -- CPU_WriteMem(296 bytes @ 0x20000400)  returns 0x128 (0004ms, 5582ms total)
T3D1C 1612:835 JLINK_WriteReg(R0, 0x00001800)  returns 0x00 (0000ms, 5582ms total)
T3D1C 1612:835 JLINK_WriteReg(R1, 0x00000400)  returns 0x00 (0000ms, 5582ms total)
T3D1C 1612:835 JLINK_WriteReg(R2, 0x20000128)  returns 0x00 (0000ms, 5582ms total)
T3D1C 1612:835 JLINK_WriteReg(R3, 0x00000000)  returns 0x00 (0000ms, 5582ms total)
T3D1C 1612:835 JLINK_WriteReg(R4, 0x00000000)  returns 0x00 (0000ms, 5582ms total)
T3D1C 1612:835 JLINK_WriteReg(R5, 0x00000000)  returns 0x00 (0000ms, 5582ms total)
T3D1C 1612:835 JLINK_WriteReg(R6, 0x00000000)  returns 0x00 (0001ms, 5583ms total)
T3D1C 1612:836 JLINK_WriteReg(R7, 0x00000000)  returns 0x00 (0000ms, 5583ms total)
T3D1C 1612:836 JLINK_WriteReg(R8, 0x00000000)  returns 0x00 (0000ms, 5583ms total)
T3D1C 1612:836 JLINK_WriteReg(R9, 0x20000124)  returns 0x00 (0000ms, 5583ms total)
T3D1C 1612:836 JLINK_WriteReg(R10, 0x00000000)  returns 0x00 (0000ms, 5583ms total)
T3D1C 1612:836 JLINK_WriteReg(R11, 0x00000000)  returns 0x00 (0000ms, 5583ms total)
T3D1C 1612:836 JLINK_WriteReg(R12, 0x00000000)  returns 0x00 (0000ms, 5583ms total)
T3D1C 1612:836 JLINK_WriteReg(R13 (SP), 0x20001000)  returns 0x00 (0000ms, 5583ms total)
T3D1C 1612:836 JLINK_WriteReg(R14, 0x20000001)  returns 0x00 (0000ms, 5583ms total)
T3D1C 1612:836 JLINK_WriteReg(R15 (PC), 0x20000092)  returns 0x00 (0000ms, 5583ms total)
T3D1C 1612:836 JLINK_WriteReg(XPSR, 0x01000000)  returns 0x00 (0000ms, 5583ms total)
T3D1C 1612:836 JLINK_WriteReg(MSP, 0x20001000)  returns 0x00 (0000ms, 5583ms total)
T3D1C 1612:836 JLINK_WriteReg(PSP, 0x20001000)  returns 0x00 (0000ms, 5583ms total)
T3D1C 1612:836 JLINK_WriteReg(CFBP, 0x00000000)  returns 0x00 (0000ms, 5583ms total)
T3D1C 1612:836 JLINK_SetBPEx(Addr = 0x20000000, Type = 0xFFFFFFF2)  returns 0x0000000B (0000ms, 5583ms total)
T3D1C 1612:836 JLINK_Go() -- CPU_ReadMem(4 bytes @ 0xE0001000) (0005ms, 5588ms total)
T3D1C 1612:841 JLINK_IsHalted()  returns FALSE (0001ms, 5589ms total)
T3D1C 1612:849 JLINK_IsHalted()  returns FALSE (0001ms, 5589ms total)
T3D1C 1612:852 JLINK_IsHalted() -- CPU_ReadMem(2 bytes @ 0x20000000)  returns TRUE (0007ms, 5595ms total)
T3D1C 1612:859 JLINK_ReadReg(R15 (PC))  returns 0x20000000 (0000ms, 5588ms total)
T3D1C 1612:859 JLINK_ClrBPEx(BPHandle = 0x0000000B)  returns 0x00 (0000ms, 5588ms total)
T3D1C 1612:859 JLINK_ReadReg(R0)  returns 0x00000000 (0000ms, 5588ms total)
T3D1C 1612:859 JLINK_WriteMem(0x20000128, 0x02D8 Bytes, ...) - Data: 6F FD 41 EC 19 0B 9F ED 6F 0B 53 EC 10 2B FE F7 ... -- CPU_WriteMem(728 bytes @ 0x20000128)  returns 0x2D8 (0009ms, 5597ms total)
T3D1C 1612:868 JLINK_WriteMem(0x20000400, 0x0128 Bytes, ...) - Data: 22 FB 41 EC 18 0B FE F7 23 FC 82 49 08 67 21 7B ... -- CPU_WriteMem(296 bytes @ 0x20000400)  returns 0x128 (0004ms, 5601ms total)
T3D1C 1612:872 JLINK_WriteReg(R0, 0x00001C00)  returns 0x00 (0000ms, 5601ms total)
T3D1C 1612:872 JLINK_WriteReg(R1, 0x00000400)  returns 0x00 (0000ms, 5601ms total)
T3D1C 1612:872 JLINK_WriteReg(R2, 0x20000128)  returns 0x00 (0000ms, 5601ms total)
T3D1C 1612:872 JLINK_WriteReg(R3, 0x00000000)  returns 0x00 (0000ms, 5601ms total)
T3D1C 1612:872 JLINK_WriteReg(R4, 0x00000000)  returns 0x00 (0000ms, 5601ms total)
T3D1C 1612:872 JLINK_WriteReg(R5, 0x00000000)  returns 0x00 (0000ms, 5601ms total)
T3D1C 1612:872 JLINK_WriteReg(R6, 0x00000000)  returns 0x00 (0000ms, 5601ms total)
T3D1C 1612:872 JLINK_WriteReg(R7, 0x00000000)  returns 0x00 (0000ms, 5601ms total)
T3D1C 1612:872 JLINK_WriteReg(R8, 0x00000000)  returns 0x00 (0000ms, 5601ms total)
T3D1C 1612:872 JLINK_WriteReg(R9, 0x20000124)  returns 0x00 (0000ms, 5601ms total)
T3D1C 1612:872 JLINK_WriteReg(R10, 0x00000000)  returns 0x00 (0000ms, 5601ms total)
T3D1C 1612:872 JLINK_WriteReg(R11, 0x00000000)  returns 0x00 (0000ms, 5601ms total)
T3D1C 1612:872 JLINK_WriteReg(R12, 0x00000000)  returns 0x00 (0000ms, 5601ms total)
T3D1C 1612:872 JLINK_WriteReg(R13 (SP), 0x20001000)  returns 0x00 (0000ms, 5601ms total)
T3D1C 1612:872 JLINK_WriteReg(R14, 0x20000001)  returns 0x00 (0000ms, 5601ms total)
T3D1C 1612:872 JLINK_WriteReg(R15 (PC), 0x20000092)  returns 0x00 (0000ms, 5601ms total)
T3D1C 1612:872 JLINK_WriteReg(XPSR, 0x01000000)  returns 0x00 (0000ms, 5601ms total)
T3D1C 1612:872 JLINK_WriteReg(MSP, 0x20001000)  returns 0x00 (0000ms, 5601ms total)
T3D1C 1612:872 JLINK_WriteReg(PSP, 0x20001000)  returns 0x00 (0000ms, 5601ms total)
T3D1C 1612:872 JLINK_WriteReg(CFBP, 0x00000000)  returns 0x00 (0000ms, 5601ms total)
T3D1C 1612:872 JLINK_SetBPEx(Addr = 0x20000000, Type = 0xFFFFFFF2)  returns 0x0000000C (0000ms, 5601ms total)
T3D1C 1612:872 JLINK_Go() -- CPU_ReadMem(4 bytes @ 0xE0001000) (0004ms, 5605ms total)
T3D1C 1612:876 JLINK_IsHalted()  returns FALSE (0002ms, 5607ms total)
T3D1C 1612:882 JLINK_IsHalted()  returns FALSE (0001ms, 5606ms total)
T3D1C 1612:885 JLINK_IsHalted() -- CPU_ReadMem(2 bytes @ 0x20000000)  returns TRUE (0007ms, 5612ms total)
T3D1C 1612:892 JLINK_ReadReg(R15 (PC))  returns 0x20000000 (0000ms, 5605ms total)
T3D1C 1612:892 JLINK_ClrBPEx(BPHandle = 0x0000000C)  returns 0x00 (0000ms, 5605ms total)
T3D1C 1612:892 JLINK_ReadReg(R0)  returns 0x00000000 (0000ms, 5605ms total)
T3D1C 1612:893 JLINK_WriteMem(0x20000128, 0x02D8 Bytes, ...) - Data: 6F FB 41 EC 19 0B 1F ED 91 0B 53 EC 10 2B FE F7 ... -- CPU_WriteMem(728 bytes @ 0x20000128)  returns 0x2D8 (0008ms, 5613ms total)
T3D1C 1612:901 JLINK_WriteMem(0x20000400, 0x0128 Bytes, ...) - Data: 61 1C CC B2 1F 49 0A 54 9D F8 04 20 20 46 61 1C ... -- CPU_WriteMem(296 bytes @ 0x20000400)  returns 0x128 (0005ms, 5618ms total)
T3D1C 1612:906 JLINK_WriteReg(R0, 0x00002000)  returns 0x00 (0000ms, 5618ms total)
T3D1C 1612:906 JLINK_WriteReg(R1, 0x00000400)  returns 0x00 (0000ms, 5618ms total)
T3D1C 1612:906 JLINK_WriteReg(R2, 0x20000128)  returns 0x00 (0000ms, 5618ms total)
T3D1C 1612:906 JLINK_WriteReg(R3, 0x00000000)  returns 0x00 (0000ms, 5618ms total)
T3D1C 1612:906 JLINK_WriteReg(R4, 0x00000000)  returns 0x00 (0000ms, 5618ms total)
T3D1C 1612:906 JLINK_WriteReg(R5, 0x00000000)  returns 0x00 (0000ms, 5618ms total)
T3D1C 1612:906 JLINK_WriteReg(R6, 0x00000000)  returns 0x00 (0000ms, 5618ms total)
T3D1C 1612:906 JLINK_WriteReg(R7, 0x00000000)  returns 0x00 (0000ms, 5618ms total)
T3D1C 1612:906 JLINK_WriteReg(R8, 0x00000000)  returns 0x00 (0000ms, 5618ms total)
T3D1C 1612:906 JLINK_WriteReg(R9, 0x20000124)  returns 0x00 (0000ms, 5618ms total)
T3D1C 1612:906 JLINK_WriteReg(R10, 0x00000000)  returns 0x00 (0000ms, 5618ms total)
T3D1C 1612:906 JLINK_WriteReg(R11, 0x00000000)  returns 0x00 (0000ms, 5618ms total)
T3D1C 1612:906 JLINK_WriteReg(R12, 0x00000000)  returns 0x00 (0000ms, 5618ms total)
T3D1C 1612:906 JLINK_WriteReg(R13 (SP), 0x20001000)  returns 0x00 (0000ms, 5618ms total)
T3D1C 1612:906 JLINK_WriteReg(R14, 0x20000001)  returns 0x00 (0000ms, 5618ms total)
T3D1C 1612:906 JLINK_WriteReg(R15 (PC), 0x20000092)  returns 0x00 (0001ms, 5619ms total)
T3D1C 1612:907 JLINK_WriteReg(XPSR, 0x01000000)  returns 0x00 (0000ms, 5619ms total)
T3D1C 1612:907 JLINK_WriteReg(MSP, 0x20001000)  returns 0x00 (0000ms, 5619ms total)
T3D1C 1612:907 JLINK_WriteReg(PSP, 0x20001000)  returns 0x00 (0000ms, 5619ms total)
T3D1C 1612:907 JLINK_WriteReg(CFBP, 0x00000000)  returns 0x00 (0000ms, 5619ms total)
T3D1C 1612:907 JLINK_SetBPEx(Addr = 0x20000000, Type = 0xFFFFFFF2)  returns 0x0000000D (0000ms, 5619ms total)
T3D1C 1612:907 JLINK_Go() -- CPU_ReadMem(4 bytes @ 0xE0001000) (0005ms, 5624ms total)
T3D1C 1612:912 JLINK_IsHalted()  returns FALSE (0001ms, 5625ms total)
T3D1C 1612:920 JLINK_IsHalted()  returns FALSE (0001ms, 5625ms total)
T3D1C 1612:923 JLINK_IsHalted() -- CPU_ReadMem(2 bytes @ 0x20000000)  returns TRUE (0006ms, 5630ms total)
T3D1C 1612:929 JLINK_ReadReg(R15 (PC))  returns 0x20000000 (0000ms, 5624ms total)
T3D1C 1612:930 JLINK_ClrBPEx(BPHandle = 0x0000000D)  returns 0x00 (0000ms, 5624ms total)
T3D1C 1612:930 JLINK_ReadReg(R0)  returns 0x00000000 (0000ms, 5624ms total)
T3D1C 1612:931 JLINK_WriteMem(0x20000128, 0x02D8 Bytes, ...) - Data: 61 1C CC B2 21 49 0A 54 9D F8 25 20 20 46 61 1C ... -- CPU_WriteMem(728 bytes @ 0x20000128)  returns 0x2D8 (0008ms, 5632ms total)
T3D1C 1612:939 JLINK_WriteMem(0x20000400, 0x0128 Bytes, ...) - Data: 64 1C 1E 48 42 54 21 46 64 1C 42 54 05 22 21 46 ... -- CPU_WriteMem(296 bytes @ 0x20000400)  returns 0x128 (0005ms, 5637ms total)
T3D1C 1612:945 JLINK_WriteReg(R0, 0x00002400)  returns 0x00 (0000ms, 5637ms total)
T3D1C 1612:945 JLINK_WriteReg(R1, 0x00000400)  returns 0x00 (0000ms, 5637ms total)
T3D1C 1612:945 JLINK_WriteReg(R2, 0x20000128)  returns 0x00 (0000ms, 5637ms total)
T3D1C 1612:945 JLINK_WriteReg(R3, 0x00000000)  returns 0x00 (0000ms, 5637ms total)
T3D1C 1612:945 JLINK_WriteReg(R4, 0x00000000)  returns 0x00 (0000ms, 5637ms total)
T3D1C 1612:945 JLINK_WriteReg(R5, 0x00000000)  returns 0x00 (0000ms, 5637ms total)
T3D1C 1612:945 JLINK_WriteReg(R6, 0x00000000)  returns 0x00 (0000ms, 5637ms total)
T3D1C 1612:945 JLINK_WriteReg(R7, 0x00000000)  returns 0x00 (0000ms, 5637ms total)
T3D1C 1612:946 JLINK_WriteReg(R8, 0x00000000)  returns 0x00 (0000ms, 5638ms total)
T3D1C 1612:946 JLINK_WriteReg(R9, 0x20000124)  returns 0x00 (0000ms, 5638ms total)
T3D1C 1612:946 JLINK_WriteReg(R10, 0x00000000)  returns 0x00 (0000ms, 5638ms total)
T3D1C 1612:946 JLINK_WriteReg(R11, 0x00000000)  returns 0x00 (0000ms, 5638ms total)
T3D1C 1612:946 JLINK_WriteReg(R12, 0x00000000)  returns 0x00 (0000ms, 5638ms total)
T3D1C 1612:946 JLINK_WriteReg(R13 (SP), 0x20001000)  returns 0x00 (0000ms, 5638ms total)
T3D1C 1612:946 JLINK_WriteReg(R14, 0x20000001)  returns 0x00 (0000ms, 5638ms total)
T3D1C 1612:946 JLINK_WriteReg(R15 (PC), 0x20000092)  returns 0x00 (0000ms, 5638ms total)
T3D1C 1612:946 JLINK_WriteReg(XPSR, 0x01000000)  returns 0x00 (0000ms, 5638ms total)
T3D1C 1612:946 JLINK_WriteReg(MSP, 0x20001000)  returns 0x00 (0000ms, 5638ms total)
T3D1C 1612:946 JLINK_WriteReg(PSP, 0x20001000)  returns 0x00 (0000ms, 5638ms total)
T3D1C 1612:946 JLINK_WriteReg(CFBP, 0x00000000)  returns 0x00 (0000ms, 5638ms total)
T3D1C 1612:946 JLINK_SetBPEx(Addr = 0x20000000, Type = 0xFFFFFFF2)  returns 0x0000000E (0000ms, 5638ms total)
T3D1C 1612:946 JLINK_Go() -- CPU_ReadMem(4 bytes @ 0xE0001000) (0005ms, 5643ms total)
T3D1C 1612:951 JLINK_IsHalted()  returns FALSE (0001ms, 5644ms total)
T3D1C 1612:957 JLINK_IsHalted()  returns FALSE (0001ms, 5644ms total)
T3D1C 1612:960 JLINK_IsHalted() -- CPU_ReadMem(2 bytes @ 0x20000000)  returns TRUE (0006ms, 5649ms total)
T3D1C 1612:966 JLINK_ReadReg(R15 (PC))  returns 0x20000000 (0000ms, 5643ms total)
T3D1C 1612:966 JLINK_ClrBPEx(BPHandle = 0x0000000E)  returns 0x00 (0000ms, 5643ms total)
T3D1C 1612:966 JLINK_ReadReg(R0)  returns 0x00000000 (0000ms, 5643ms total)
T3D1C 1612:967 JLINK_WriteMem(0x20000128, 0x02D8 Bytes, ...) - Data: 20 46 61 1C CC B2 2C 49 0A 54 9D F8 24 20 20 46 ... -- CPU_WriteMem(728 bytes @ 0x20000128)  returns 0x2D8 (0008ms, 5651ms total)
T3D1C 1612:975 JLINK_WriteMem(0x20000400, 0x0128 Bytes, ...) - Data: C8 B2 A0 42 F7 DB 20 46 61 1C CC B2 03 49 0D 54 ... -- CPU_WriteMem(296 bytes @ 0x20000400)  returns 0x128 (0004ms, 5655ms total)
T3D1C 1612:979 JLINK_WriteReg(R0, 0x00002800)  returns 0x00 (0000ms, 5655ms total)
T3D1C 1612:979 JLINK_WriteReg(R1, 0x00000400)  returns 0x00 (0000ms, 5655ms total)
T3D1C 1612:979 JLINK_WriteReg(R2, 0x20000128)  returns 0x00 (0000ms, 5655ms total)
T3D1C 1612:979 JLINK_WriteReg(R3, 0x00000000)  returns 0x00 (0000ms, 5655ms total)
T3D1C 1612:979 JLINK_WriteReg(R4, 0x00000000)  returns 0x00 (0000ms, 5655ms total)
T3D1C 1612:979 JLINK_WriteReg(R5, 0x00000000)  returns 0x00 (0000ms, 5655ms total)
T3D1C 1612:979 JLINK_WriteReg(R6, 0x00000000)  returns 0x00 (0000ms, 5655ms total)
T3D1C 1612:979 JLINK_WriteReg(R7, 0x00000000)  returns 0x00 (0000ms, 5655ms total)
T3D1C 1612:979 JLINK_WriteReg(R8, 0x00000000)  returns 0x00 (0000ms, 5655ms total)
T3D1C 1612:979 JLINK_WriteReg(R9, 0x20000124)  returns 0x00 (0000ms, 5655ms total)
T3D1C 1612:979 JLINK_WriteReg(R10, 0x00000000)  returns 0x00 (0000ms, 5655ms total)
T3D1C 1612:979 JLINK_WriteReg(R11, 0x00000000)  returns 0x00 (0000ms, 5655ms total)
T3D1C 1612:979 JLINK_WriteReg(R12, 0x00000000)  returns 0x00 (0000ms, 5655ms total)
T3D1C 1612:979 JLINK_WriteReg(R13 (SP), 0x20001000)  returns 0x00 (0000ms, 5655ms total)
T3D1C 1612:979 JLINK_WriteReg(R14, 0x20000001)  returns 0x00 (0000ms, 5655ms total)
T3D1C 1612:979 JLINK_WriteReg(R15 (PC), 0x20000092)  returns 0x00 (0000ms, 5655ms total)
T3D1C 1612:979 JLINK_WriteReg(XPSR, 0x01000000)  returns 0x00 (0000ms, 5655ms total)
T3D1C 1612:979 JLINK_WriteReg(MSP, 0x20001000)  returns 0x00 (0000ms, 5655ms total)
T3D1C 1612:979 JLINK_WriteReg(PSP, 0x20001000)  returns 0x00 (0000ms, 5655ms total)
T3D1C 1612:979 JLINK_WriteReg(CFBP, 0x00000000)  returns 0x00 (0000ms, 5655ms total)
T3D1C 1612:979 JLINK_SetBPEx(Addr = 0x20000000, Type = 0xFFFFFFF2)  returns 0x0000000F (0000ms, 5655ms total)
T3D1C 1612:979 JLINK_Go() -- CPU_ReadMem(4 bytes @ 0xE0001000) (0004ms, 5659ms total)
T3D1C 1612:983 JLINK_IsHalted()  returns FALSE (0001ms, 5660ms total)
T3D1C 1612:986 JLINK_IsHalted()  returns FALSE (0000ms, 5659ms total)
T3D1C 1612:988 JLINK_IsHalted()  returns FALSE (0001ms, 5660ms total)
T3D1C 1612:991 JLINK_IsHalted()  returns FALSE (0000ms, 5659ms total)
T3D1C 1612:993 JLINK_IsHalted() -- CPU_ReadMem(2 bytes @ 0x20000000)  returns TRUE (0006ms, 5665ms total)
T3D1C 1612:999 JLINK_ReadReg(R15 (PC))  returns 0x20000000 (0000ms, 5659ms total)
T3D1C 1612:999 JLINK_ClrBPEx(BPHandle = 0x0000000F)  returns 0x00 (0000ms, 5659ms total)
T3D1C 1612:999 JLINK_ReadReg(R0)  returns 0x00000000 (0000ms, 5659ms total)
T3D1C 1613:000 JLINK_WriteMem(0x20000128, 0x02D8 Bytes, ...) - Data: 40 8A F0 EE 60 8A B0 EE 41 9A 05 46 0E 46 17 46 ... -- CPU_WriteMem(728 bytes @ 0x20000128)  returns 0x2D8 (0009ms, 5668ms total)
T3D1C 1613:009 JLINK_WriteMem(0x20000400, 0x0128 Bytes, ...) - Data: 1D 49 0A 54 9D F8 08 20 20 46 61 1C CC B2 1A 49 ... -- CPU_WriteMem(296 bytes @ 0x20000400)  returns 0x128 (0004ms, 5672ms total)
T3D1C 1613:013 JLINK_WriteReg(R0, 0x00002C00)  returns 0x00 (0000ms, 5672ms total)
